Time [s], Analyzer Name, Decoded Protocol Result
0.000018125000000,SPI,MOSI: 0xFFFF
0.020013750000000,SPI,MOSI: 0xFFFF
0.040009416666667,SPI,MOSI: 0xFFFF
0.060017083333333,SPI,MOSI: 0xFFFF
0.080012708333333,SPI,MOSI: 0xFFFF
0.100008375000000,SPI,MOSI: 0xFFFF
0.120016041666667,SPI,MOSI: 0xFFFF
0.140011666666667,SPI,MOSI: 0xFFFF
0.160019333333333,SPI,MOSI: 0xFFFF
0.180015000000000,SPI,MOSI: 0xFFFF
0.200010625000000,SPI,MOSI: 0xFFFF
0.220018291666667,SPI,MOSI: 0xFFFF
0.240013958333333,SPI,MOSI: 0xFFFF
0.260009583333333,SPI,MOSI: 0xFFFF
0.280017250000000,SPI,MOSI: 0xFFFF
0.300012916666667,SPI,MOSI: 0xFFFF
0.320020583333333,SPI,MOSI: 0xFFFF
0.340016208333333,SPI,MOSI: 0xFFFF
0.360011875000000,SPI,MOSI: 0xFFFF
0.380019541666667,SPI,MOSI: 0xFFFF
0.400015166666667,SPI,MOSI: 0xFFFF
0.420010791666667,SPI,MOSI: 0xFFFF
0.440018500000000,SPI,MOSI: 0xFFFF
0.460014125000000,SPI,MOSI: 0xFFFF
0.480021791666667,SPI,MOSI: 0xFFFF
0.500017458333333,SPI,MOSI: 0xFFFF
0.520013083333333,SPI,MOSI: 0xFFFF
0.540020750000000,SPI,MOSI: 0xFFFF
0.560016375000000,SPI,MOSI: 0xFFFF
0.580012041666667,SPI,MOSI: 0xFFFF
0.600019708333333,SPI,MOSI: 0xFFFF
0.620015333333333,SPI,MOSI: 0xFFFF
0.640023000000000,SPI,MOSI: 0xFFFF
0.660018666666667,SPI,MOSI: 0xFFFF
0.680014291666667,SPI,MOSI: 0xFFFF
0.700021958333333,SPI,MOSI: 0xFFFF
0.720017625000000,SPI,MOSI: 0xFFFF
0.740013250000000,SPI,MOSI: 0xFFFF
0.760020916666667,SPI,MOSI: 0xFFFF
0.780016583333333,SPI,MOSI: 0xFFFF
0.800024250000000,SPI,MOSI: 0xFFFF
0.820019875000000,SPI,MOSI: 0xFFFF
0.840015541666667,SPI,MOSI: 0xFFFF
0.860023208333333,SPI,MOSI: 0xFFFF
0.880018833333333,SPI,MOSI: 0xFFFF
0.900014500000000,SPI,MOSI: 0xFFFF
0.920022166666667,SPI,MOSI: 0xFFFF
0.940017791666667,SPI,MOSI: 0xFFFF
0.960025458333333,SPI,MOSI: 0xFFFF
0.980021125000000,SPI,MOSI: 0xFFFF
1.000016750000000,SPI,MOSI: 0xFFFF
1.020024416666667,SPI,MOSI: 0xFFFF
1.040020083333333,SPI,MOSI: 0xFFFF
1.060015708333333,SPI,MOSI: 0xFFFF
1.080023375000000,SPI,MOSI: 0xFFFF
1.100019000000000,SPI,MOSI: 0xFFFF
1.120026708333333,SPI,MOSI: 0xFFFF
1.140022333333333,SPI,MOSI: 0xFFFF
1.160017958333333,SPI,MOSI: 0xFFFF
1.180025625000000,SPI,MOSI: 0xFFFF
1.200021291666667,SPI,MOSI: 0xFFFF
1.220016916666667,SPI,MOSI: 0xFFFF
1.240024583333333,SPI,MOSI: 0xFFFF
1.260020250000000,SPI,MOSI: 0xFFFF
1.280027916666667,SPI,MOSI: 0xFFFF
1.300023541666667,SPI,MOSI: 0xFFFF
1.320019208333333,SPI,MOSI: 0xFFFF
1.340026875000000,SPI,MOSI: 0xFFFF
1.360022500000000,SPI,MOSI: 0xFFFF
1.380018166666667,SPI,MOSI: 0xFFFF
1.400025833333333,SPI,MOSI: 0xFFFF
1.420021458333333,SPI,MOSI: 0xFFFF
1.440029125000000,SPI,MOSI: 0xFFFF
1.460024791666667,SPI,MOSI: 0xFFFF
1.480020416666667,SPI,MOSI: 0xFFFF
1.500028083333333,SPI,MOSI: 0xFFFF
1.520023750000000,SPI,MOSI: 0xFFFF
1.540019375000000,SPI,MOSI: 0xFFFF
1.560027041666667,SPI,MOSI: 0xFFFF
1.580022666666667,SPI,MOSI: 0xFFFF
1.600030375000000,SPI,MOSI: 0xFFFF
1.620026000000000,SPI,MOSI: 0xFFFF
1.640021625000000,SPI,MOSI: 0xFFFF
1.660029333333333,SPI,MOSI: 0xFFFF
1.680024958333333,SPI,MOSI: 0xFFFF
1.700020583333333,SPI,MOSI: 0xFFFF
1.720028250000000,SPI,MOSI: 0xFFFF
1.740023916666667,SPI,MOSI: 0xFFFF
1.760031583333333,SPI,MOSI: 0xFFFF
1.780027208333333,SPI,MOSI: 0xFFFF
1.800022875000000,SPI,MOSI: 0xFFFF
1.820030541666667,SPI,MOSI: 0xFFFF
1.840026166666667,SPI,MOSI: 0xFFFF
1.860021833333333,SPI,MOSI: 0xFFFF
1.880029500000000,SPI,MOSI: 0xFFFF
1.900025125000000,SPI,MOSI: 0xFFFF
1.920032791666667,SPI,MOSI: 0xFFFF
1.940028458333333,SPI,MOSI: 0xFFFF
1.960024083333333,SPI,MOSI: 0xFFFF
1.980031750000000,SPI,MOSI: 0xFFFF
2.000027416666667,SPI,MOSI: 0xFFFF
2.020023041666667,SPI,MOSI: 0xFFFF
2.040030708333334,SPI,MOSI: 0xFFFF
2.060026375000000,SPI,MOSI: 0xFFFF
2.080034041666666,SPI,MOSI: 0xFFFF
2.100029666666666,SPI,MOSI: 0xFFFF
2.120025333333333,SPI,MOSI: 0xFFFF
2.140033000000000,SPI,MOSI: 0xFFFF
2.160028625000000,SPI,MOSI: 0xFFFF
2.180024250000000,SPI,MOSI: 0xFFFF
2.200031958333333,SPI,MOSI: 0xFFFF
2.220027583333333,SPI,MOSI: 0xFFFF
2.240035250000000,SPI,MOSI: 0xFFFF
2.260030916666667,SPI,MOSI: 0xFFFF
2.280026541666667,SPI,MOSI: 0xFFFF
2.300034208333333,SPI,MOSI: 0xFFFF
2.320029833333333,SPI,MOSI: 0xFFFF
2.340025500000000,SPI,MOSI: 0xFFFF
2.360033166666667,SPI,MOSI: 0xFFFF
2.380028791666667,SPI,MOSI: 0xFFFF
2.400036500000000,SPI,MOSI: 0xFFFF
2.420032125000000,SPI,MOSI: 0xFFFF
2.440027750000000,SPI,MOSI: 0xFFFF
2.460035416666666,SPI,MOSI: 0xFFFF
2.480031083333333,SPI,MOSI: 0xFFFF
2.500026708333333,SPI,MOSI: 0xFFFF
2.520034375000000,SPI,MOSI: 0xFFFF
2.540030041666667,SPI,MOSI: 0xFFFF
2.560037708333333,SPI,MOSI: 0xFFFF
2.580033333333333,SPI,MOSI: 0xFFFF
2.600029000000000,SPI,MOSI: 0xFFFF
2.620036666666667,SPI,MOSI: 0xFFFF
2.640032291666667,SPI,MOSI: 0xFFFF
2.660027958333333,SPI,MOSI: 0xFFFF
2.680035625000000,SPI,MOSI: 0xFFFF
2.700031250000000,SPI,MOSI: 0xFFFF
2.720038916666667,SPI,MOSI: 0xFFFF
2.740034583333333,SPI,MOSI: 0xFFFF
2.760030208333333,SPI,MOSI: 0xFFFF
2.780037875000000,SPI,MOSI: 0xFFFF
2.800033541666667,SPI,MOSI: 0xFFFF
2.820029166666667,SPI,MOSI: 0xFFFF
2.840036833333333,SPI,MOSI: 0xFFFF
2.860032458333333,SPI,MOSI: 0xFFFF
2.880040166666667,SPI,MOSI: 0xFFFF
2.900035791666667,SPI,MOSI: 0xFFFF
2.920031416666667,SPI,MOSI: 0xFFFF
2.940039083333333,SPI,MOSI: 0xFFFF
2.960034750000000,SPI,MOSI: 0xFFFF
2.980030375000000,SPI,MOSI: 0xFFFF
3.000038041666667,SPI,MOSI: 0xFFFF
3.020033708333334,SPI,MOSI: 0xFFFF
3.040041375000000,SPI,MOSI: 0xFFFF
3.060037000000000,SPI,MOSI: 0xFFFF
3.080032666666667,SPI,MOSI: 0xFFFF
3.100040333333333,SPI,MOSI: 0xFFFF
3.120035958333333,SPI,MOSI: 0xFFFF
3.140031625000000,SPI,MOSI: 0xFFFF
3.160039291666667,SPI,MOSI: 0xFFFF
3.180034916666667,SPI,MOSI: 0xFFFF
3.200042583333333,SPI,MOSI: 0xFFFF
3.220038250000000,SPI,MOSI: 0xFFFF
3.240033875000000,SPI,MOSI: 0xFFFF
3.260041541666667,SPI,MOSI: 0xFFFF
3.280037166666667,SPI,MOSI: 0xFFFF
3.300032833333333,SPI,MOSI: 0xFFFF
3.320040500000000,SPI,MOSI: 0xFFFF
3.340036125000000,SPI,MOSI: 0xFFFF
3.360043791666667,SPI,MOSI: 0xFFFF
3.380039458333334,SPI,MOSI: 0xFFFF
3.400035083333333,SPI,MOSI: 0xFFFF
3.420042750000000,SPI,MOSI: 0xFFFF
3.440038416666667,SPI,MOSI: 0xFFFF
3.460034041666667,SPI,MOSI: 0xFFFF
3.480041708333333,SPI,MOSI: 0xFFFF
3.500037375000000,SPI,MOSI: 0xFFFF
3.520045041666667,SPI,MOSI: 0xFFFF
3.540040666666667,SPI,MOSI: 0xFFFF
3.560036333333333,SPI,MOSI: 0xFFFF
3.580044000000000,SPI,MOSI: 0xFFFF
3.600039625000000,SPI,MOSI: 0xFFFF
3.620035250000000,SPI,MOSI: 0xFFFF
3.640042958333333,SPI,MOSI: 0xFFFF
3.660038583333333,SPI,MOSI: 0xFFFF
3.680046250000000,SPI,MOSI: 0xFFFF
3.700041875000000,SPI,MOSI: 0xFFFF
3.720037541666667,SPI,MOSI: 0xFFFF
3.740045208333334,SPI,MOSI: 0xFFFF
3.760040833333333,SPI,MOSI: 0xFFFF
3.780036500000000,SPI,MOSI: 0xFFFF
3.800044166666666,SPI,MOSI: 0xFFFF
3.820039791666667,SPI,MOSI: 0xFFFF
3.840047458333333,SPI,MOSI: 0xFFFF
3.860043125000000,SPI,MOSI: 0xFFFF
3.880038750000000,SPI,MOSI: 0xFFFF
3.900046416666667,SPI,MOSI: 0xFFFF
3.920042083333333,SPI,MOSI: 0xFFFF
3.940037708333334,SPI,MOSI: 0xFFFF
3.960045375000000,SPI,MOSI: 0xFFFF
3.980041041666667,SPI,MOSI: 0xFFFF
4.000048708333333,SPI,MOSI: 0xFFFF
4.020044333333334,SPI,MOSI: 0xFFFF
4.040039958333334,SPI,MOSI: 0xFFFF
4.060047666666667,SPI,MOSI: 0xFFFF
4.080043291666667,SPI,MOSI: 0xFFFF
4.100038916666667,SPI,MOSI: 0xFFFF
4.120046583333333,SPI,MOSI: 0xFFFF
4.140042250000000,SPI,MOSI: 0xFFFF
4.160049916666667,SPI,MOSI: 0xFFFF
4.180045541666667,SPI,MOSI: 0xFFFF
4.200041208333333,SPI,MOSI: 0xFFFF
4.220048875000000,SPI,MOSI: 0xFFFF
4.240044500000000,SPI,MOSI: 0xFFFF
4.260040166666666,SPI,MOSI: 0xFFFF
4.280047833333334,SPI,MOSI: 0xFFFF
4.300043458333334,SPI,MOSI: 0xFFFF
4.320051125000000,SPI,MOSI: 0xFFFF
4.340046791666667,SPI,MOSI: 0xFFFF
4.360042416666666,SPI,MOSI: 0xFFFF
4.380050083333333,SPI,MOSI: 0xFFFF
4.400045708333334,SPI,MOSI: 0xFFFF
4.420041375000000,SPI,MOSI: 0xFFFF
4.440049041666667,SPI,MOSI: 0xFFFF
4.460044666666667,SPI,MOSI: 0xFFFF
4.480052333333333,SPI,MOSI: 0xFFFF
4.500048000000000,SPI,MOSI: 0xFFFF
4.520043625000000,SPI,MOSI: 0xFFFF
4.540051291666667,SPI,MOSI: 0xFFFF
4.560046958333333,SPI,MOSI: 0xFFFF
4.580042583333333,SPI,MOSI: 0xFFFF
4.600050250000000,SPI,MOSI: 0xFFFF
4.620045916666666,SPI,MOSI: 0xFFFF
4.640053583333334,SPI,MOSI: 0xFFFF
4.660049208333334,SPI,MOSI: 0xFFFF
4.680044875000000,SPI,MOSI: 0xFFFF
4.700052541666667,SPI,MOSI: 0xFFFF
4.720048166666666,SPI,MOSI: 0xFFFF
4.740043791666666,SPI,MOSI: 0xFFFF
4.760051500000000,SPI,MOSI: 0xFFFF
4.780047125000000,SPI,MOSI: 0xFFFF
4.800054791666667,SPI,MOSI: 0xFFFF
4.820050416666667,SPI,MOSI: 0xFFFF
4.840046083333333,SPI,MOSI: 0xFFFF
4.860053750000000,SPI,MOSI: 0xFFFF
4.880049375000000,SPI,MOSI: 0xFFFF
4.900045041666667,SPI,MOSI: 0xFFFF
4.920052708333333,SPI,MOSI: 0xFFFF
4.940048333333333,SPI,MOSI: 0xFFFF
4.960056000000000,SPI,MOSI: 0xFFFF
4.980051666666666,SPI,MOSI: 0xFFFF
5.000047291666666,SPI,MOSI: 0xFFFF
5.020054958333334,SPI,MOSI: 0xFFFF
5.040050625000000,SPI,MOSI: 0xFFFF
5.060046250000000,SPI,MOSI: 0xFFFF
5.080053916666667,SPI,MOSI: 0xFFFF
5.100049541666666,SPI,MOSI: 0xFFFF
5.120057250000000,SPI,MOSI: 0xFFFF
5.140052875000000,SPI,MOSI: 0xFFFF
5.160048500000000,SPI,MOSI: 0xFFFF
5.180056166666667,SPI,MOSI: 0xFFFF
5.200051833333333,SPI,MOSI: 0xFFFF
5.220047458333333,SPI,MOSI: 0xFFFF
5.240055125000000,SPI,MOSI: 0xFFFF
5.260050791666667,SPI,MOSI: 0xFFFF
5.280058458333333,SPI,MOSI: 0xFFFF
5.300054083333333,SPI,MOSI: 0xFFFF
5.320049750000000,SPI,MOSI: 0xFFFF
5.340057416666666,SPI,MOSI: 0xFFFF
5.360053041666666,SPI,MOSI: 0xFFFF
5.380048666666666,SPI,MOSI: 0xFFFF
5.400056375000000,SPI,MOSI: 0xFFFF
5.420052000000000,SPI,MOSI: 0xFFFF
5.440059666666667,SPI,MOSI: 0xFFFF
5.460055333333333,SPI,MOSI: 0xFFFF
5.480050958333333,SPI,MOSI: 0xFFFF
5.500058625000000,SPI,MOSI: 0xFFFF
5.520054250000000,SPI,MOSI: 0xFFFF
5.540049916666667,SPI,MOSI: 0xFFFF
5.560057583333333,SPI,MOSI: 0xFFFF
5.580053208333333,SPI,MOSI: 0xFFFF
5.600060875000000,SPI,MOSI: 0xFFFF
5.620056541666667,SPI,MOSI: 0xFFFF
5.640052166666667,SPI,MOSI: 0xFFFF
5.660059833333333,SPI,MOSI: 0xFFFF
5.680055500000000,SPI,MOSI: 0xFFFF
5.700051125000000,SPI,MOSI: 0xFFFF
5.720058791666666,SPI,MOSI: 0xFFFF
5.740054458333334,SPI,MOSI: 0xFFFF
5.760062125000000,SPI,MOSI: 0xFFFF
5.780057750000000,SPI,MOSI: 0xFFFF
5.800053375000000,SPI,MOSI: 0xFFFF
5.820061083333333,SPI,MOSI: 0xFFFF
5.840056708333333,SPI,MOSI: 0xFFFF
5.860052333333333,SPI,MOSI: 0xFFFF
5.880060000000000,SPI,MOSI: 0xFFFF
5.900055666666667,SPI,MOSI: 0xFFFF
5.920063333333333,SPI,MOSI: 0xFFFF
5.940058958333333,SPI,MOSI: 0xFFFF
5.960054625000000,SPI,MOSI: 0xFFFF
5.980062291666667,SPI,MOSI: 0xFFFF
6.000057916666667,SPI,MOSI: 0xFFFF
6.020053583333334,SPI,MOSI: 0xFFFF
6.040061250000000,SPI,MOSI: 0xFFFF
6.060056875000000,SPI,MOSI: 0xFFFF
6.080064541666666,SPI,MOSI: 0xFFFF
6.100060208333334,SPI,MOSI: 0xFFFF
6.120055833333334,SPI,MOSI: 0xFFFF
6.140063500000000,SPI,MOSI: 0xFFFF
6.160059125000000,SPI,MOSI: 0xFFFF
6.180054791666667,SPI,MOSI: 0xFFFF
6.200062458333333,SPI,MOSI: 0xEFFF
6.220058083333333,SPI,MOSI: 0xEFFF
6.240065750000000,SPI,MOSI: 0xEFFF
6.260061416666667,SPI,MOSI: 0xEFFF
6.280057041666667,SPI,MOSI: 0xEFFF
6.300064708333333,SPI,MOSI: 0xEFFF
6.320060375000000,SPI,MOSI: 0xEFFF
6.340056000000000,SPI,MOSI: 0xFFFF
6.360063666666667,SPI,MOSI: 0xFFFF
6.380059333333334,SPI,MOSI: 0xFFFF
6.400067000000000,SPI,MOSI: 0xFFFF
6.420062625000000,SPI,MOSI: 0xFFFF
6.440058291666666,SPI,MOSI: 0xFFFF
6.460065958333334,SPI,MOSI: 0xFFFF
6.480061583333334,SPI,MOSI: 0xFFFF
6.500057208333334,SPI,MOSI: 0xFFFF
6.520064916666667,SPI,MOSI: 0xFFFF
6.540060541666667,SPI,MOSI: 0xFFFF
6.560068208333333,SPI,MOSI: 0xFFFF
6.580063833333333,SPI,MOSI: 0xFFFF
6.600059500000000,SPI,MOSI: 0xFFFF
6.620067166666667,SPI,MOSI: 0xFFFF
6.640062791666667,SPI,MOSI: 0xFFFF
6.660058458333333,SPI,MOSI: 0xFFFF
6.680066125000000,SPI,MOSI: 0xFFFF
6.700061750000000,SPI,MOSI: 0xFFFF
6.720069416666667,SPI,MOSI: 0xFFFF
6.740065083333334,SPI,MOSI: 0xFFFF
6.760060708333334,SPI,MOSI: 0xFFFF
6.780068375000000,SPI,MOSI: 0xFFFF
6.800064041666666,SPI,MOSI: 0xFFFF
6.820059666666666,SPI,MOSI: 0xFFFF
6.840067333333334,SPI,MOSI: 0xFFFF
6.860063000000000,SPI,MOSI: 0xFFFF
6.880070666666667,SPI,MOSI: 0xFFFF
6.900066291666667,SPI,MOSI: 0xFFFF
6.920061958333333,SPI,MOSI: 0xFFFF
6.940069625000000,SPI,MOSI: 0xFFFF
6.960065250000000,SPI,MOSI: 0xFFFF
6.980060875000000,SPI,MOSI: 0xFFFF
7.000068583333333,SPI,MOSI: 0xFFFF
7.020064208333333,SPI,MOSI: 0xFFFF
7.040071875000000,SPI,MOSI: 0xFFFF
7.060067500000000,SPI,MOSI: 0xFFFF
7.080063166666666,SPI,MOSI: 0xFFFF
7.100070833333334,SPI,MOSI: 0xFFFF
7.120066458333334,SPI,MOSI: 0xFFFF
7.140062125000000,SPI,MOSI: 0xFFFF
7.160069791666666,SPI,MOSI: 0xFFFF
7.180065416666666,SPI,MOSI: 0xFFFF
7.200073083333334,SPI,MOSI: 0xFFFF
7.220068750000000,SPI,MOSI: 0xFFFF
7.240064375000000,SPI,MOSI: 0xFFFF
7.260072041666667,SPI,MOSI: 0xFFFF
7.280067708333333,SPI,MOSI: 0xFFFF
7.300063333333333,SPI,MOSI: 0xFFFF
7.320071000000000,SPI,MOSI: 0xFFFF
7.340066666666667,SPI,MOSI: 0xFFFF
7.360074333333333,SPI,MOSI: 0xFFFF
7.380069958333333,SPI,MOSI: 0xFFFF
7.400065625000000,SPI,MOSI: 0xFFFF
7.420073291666666,SPI,MOSI: 0xFFFF
7.440068916666666,SPI,MOSI: 0xFFFF
7.460064541666667,SPI,MOSI: 0xFFFF
7.480072250000000,SPI,MOSI: 0xFFFF
7.500067875000000,SPI,MOSI: 0xFFFF
7.520075541666666,SPI,MOSI: 0xFFFF
7.540071166666666,SPI,MOSI: 0xFFFF
7.560066833333333,SPI,MOSI: 0xFFFF
7.580074500000000,SPI,MOSI: 0xFFFF
7.600070125000000,SPI,MOSI: 0xFFFF
7.620065791666667,SPI,MOSI: 0xFFFF
7.640073458333333,SPI,MOSI: 0xFFFF
7.660069083333333,SPI,MOSI: 0xFFFF
7.680076750000000,SPI,MOSI: 0xFF7F
7.700072416666667,SPI,MOSI: 0xFF7F
7.720068041666667,SPI,MOSI: 0xFF7F
7.740075708333333,SPI,MOSI: 0xFF7F
7.760071375000000,SPI,MOSI: 0xFF7F
7.780067000000000,SPI,MOSI: 0xFF7F
7.800074666666666,SPI,MOSI: 0xFF7F
7.820070291666666,SPI,MOSI: 0xFFFF
7.840078000000000,SPI,MOSI: 0xFFFF
7.860073625000000,SPI,MOSI: 0xFFFF
7.880069250000000,SPI,MOSI: 0xFFFF
7.900076958333333,SPI,MOSI: 0xFFFF
7.920072583333333,SPI,MOSI: 0xFFFF
7.940068208333333,SPI,MOSI: 0xFFFF
7.960075875000000,SPI,MOSI: 0xFFFF
7.980071541666667,SPI,MOSI: 0xFFFF
8.000079208333334,SPI,MOSI: 0xFFFF
8.020074833333334,SPI,MOSI: 0xFFFF
8.040070500000001,SPI,MOSI: 0xFFFF
8.060078166666667,SPI,MOSI: 0xFFFF
8.080073791666667,SPI,MOSI: 0xFFFF
8.100069458333333,SPI,MOSI: 0xFFFF
8.120077125000000,SPI,MOSI: 0xFFFF
8.140072750000000,SPI,MOSI: 0xFFFF
8.160080416666666,SPI,MOSI: 0xFFFF
8.180076083333333,SPI,MOSI: 0xFFFF
8.200071708333333,SPI,MOSI: 0xFFFF
8.220079374999999,SPI,MOSI: 0xFFFF
8.240075041666667,SPI,MOSI: 0xFFFF
8.260070666666667,SPI,MOSI: 0xFFFF
8.280078333333334,SPI,MOSI: 0xFFFF
8.300073958333334,SPI,MOSI: 0xFFFF
8.320081666666667,SPI,MOSI: 0xFFFF
8.340077291666667,SPI,MOSI: 0xFFFF
8.360072916666667,SPI,MOSI: 0xFFFF
8.380080583333333,SPI,MOSI: 0xFFFF
8.400076250000000,SPI,MOSI: 0xFFFF
8.420071875000000,SPI,MOSI: 0xFFFF
8.440079541666666,SPI,MOSI: 0xFFFF
8.460075208333333,SPI,MOSI: 0xFFFF
8.480082875000001,SPI,MOSI: 0xFFFF
8.500078500000001,SPI,MOSI: 0xFFFF
8.520074166666667,SPI,MOSI: 0xFFFF
8.540081833333334,SPI,MOSI: 0xFFFF
8.560077458333334,SPI,MOSI: 0xFFFF
8.580073125000000,SPI,MOSI: 0xFFFF
8.600080791666667,SPI,MOSI: 0xFFFF
8.620076416666667,SPI,MOSI: 0xFFFF
8.640084083333333,SPI,MOSI: 0xFFFF
8.660079750000000,SPI,MOSI: 0xFFFF
8.680075374999999,SPI,MOSI: 0xFFFF
8.700083041666666,SPI,MOSI: 0xFFFF
8.720078666666666,SPI,MOSI: 0xFFFF
8.740074333333334,SPI,MOSI: 0xFFFF
8.760082000000001,SPI,MOSI: 0xFFFF
8.780077625000001,SPI,MOSI: 0xFFFF
8.800085333333334,SPI,MOSI: 0xFFFF
8.820080958333333,SPI,MOSI: 0xFFFF
8.840076583333333,SPI,MOSI: 0xFFFF
8.860084250000000,SPI,MOSI: 0xFFFF
8.880079916666666,SPI,MOSI: 0xFFFF
8.900075541666666,SPI,MOSI: 0xFFFF
8.920083208333333,SPI,MOSI: 0xFFFF
8.940078874999999,SPI,MOSI: 0xFFFF
8.960086541666668,SPI,MOSI: 0xFFFF
8.980082166666667,SPI,MOSI: 0xFFFF
9.000077833333334,SPI,MOSI: 0xFFFF
9.020085500000000,SPI,MOSI: 0xFFFF
9.040081125000000,SPI,MOSI: 0xFFFF
9.060076791666667,SPI,MOSI: 0xFFFF
9.080084458333333,SPI,MOSI: 0xFFFF
9.100080083333333,SPI,MOSI: 0xFFFF
9.120087750000000,SPI,MOSI: 0xFFFF
9.140083416666666,SPI,MOSI: 0xFFFF
9.160079041666666,SPI,MOSI: 0xFFFF
9.180086708333333,SPI,MOSI: 0xFFFF
9.200082333333333,SPI,MOSI: 0xFFFF
9.220078000000001,SPI,MOSI: 0xFFFF
9.240085666666667,SPI,MOSI: 0xFFFF
9.260081291666667,SPI,MOSI: 0xFFFF
9.280088958333334,SPI,MOSI: 0xFFFF
9.300084625000000,SPI,MOSI: 0xFFFF
9.320080250000000,SPI,MOSI: 0xFFFF
9.340087916666667,SPI,MOSI: 0xFFFF
9.360083583333333,SPI,MOSI: 0xFFFF
9.380079208333333,SPI,MOSI: 0xFFFF
9.400086875000000,SPI,MOSI: 0xFFFF
9.420082541666666,SPI,MOSI: 0xFFFF
9.440090208333332,SPI,MOSI: 0xFFFF
9.460085833333334,SPI,MOSI: 0xFFFF
9.480081458333334,SPI,MOSI: 0xFFFF
9.500089166666667,SPI,MOSI: 0xFFFF
9.520084791666667,SPI,MOSI: 0xFFFF
9.540080416666667,SPI,MOSI: 0xFFFF
9.560088083333333,SPI,MOSI: 0xFFFF
9.580083750000000,SPI,MOSI: 0xFFFF
9.600091416666666,SPI,MOSI: 0xFFFF
9.620087041666666,SPI,MOSI: 0xFBFF
9.640082708333333,SPI,MOSI: 0xFBFF
9.660090374999999,SPI,MOSI: 0xFBFF
9.680085999999999,SPI,MOSI: 0xFBFF
9.700081666666666,SPI,MOSI: 0xFBFF
9.720089333333334,SPI,MOSI: 0xFBFF
9.740084958333334,SPI,MOSI: 0xFBFF
9.760092625000000,SPI,MOSI: 0xFBFF
9.780088291666667,SPI,MOSI: 0xFBFF
9.800083916666667,SPI,MOSI: 0xFBFF
9.820091583333333,SPI,MOSI: 0xFBFF
9.840087208333333,SPI,MOSI: 0xFBFF
9.860082875000000,SPI,MOSI: 0xFBFF
9.880090541666666,SPI,MOSI: 0xFBFF
9.900086166666666,SPI,MOSI: 0xFBFF
9.920093833333333,SPI,MOSI: 0xFBFF
9.940089499999999,SPI,MOSI: 0xFBFF
9.960085125000001,SPI,MOSI: 0xFBFF
9.980092791666667,SPI,MOSI: 0xFBFF
10.000088458333334,SPI,MOSI: 0xFBFF
10.020084083333334,SPI,MOSI: 0xFBFF
10.040091750000000,SPI,MOSI: 0xFBFF
10.060087416666667,SPI,MOSI: 0xFBFF
10.080095083333333,SPI,MOSI: 0xFBFF
10.100090708333333,SPI,MOSI: 0xFBFF
10.120086333333333,SPI,MOSI: 0xFBFF
10.140094041666666,SPI,MOSI: 0xFBFF
10.160089666666666,SPI,MOSI: 0xFBFF
10.180085291666666,SPI,MOSI: 0xFBFF
10.200092958333334,SPI,MOSI: 0xFBFF
10.220088625000001,SPI,MOSI: 0xFBFF
10.240096291666667,SPI,MOSI: 0xFBFF
10.260091916666667,SPI,MOSI: 0xFBFF
10.280087583333334,SPI,MOSI: 0xFBFF
10.300095250000000,SPI,MOSI: 0xFBFF
10.320090875000000,SPI,MOSI: 0xFBFF
10.340086541666667,SPI,MOSI: 0xFBFF
10.360094208333333,SPI,MOSI: 0xFBFF
10.380089833333333,SPI,MOSI: 0xFBFF
10.400097499999999,SPI,MOSI: 0xFBFF
10.420093166666666,SPI,MOSI: 0xFBFF
10.440088791666666,SPI,MOSI: 0xFBFF
10.460096458333334,SPI,MOSI: 0xFBFF
10.480092083333334,SPI,MOSI: 0xFBFF
10.500087750000000,SPI,MOSI: 0xFBFF
10.520095416666667,SPI,MOSI: 0xFBFF
10.540091041666667,SPI,MOSI: 0xFBFF
10.560098708333333,SPI,MOSI: 0xFBFF
10.580094375000000,SPI,MOSI: 0xFBFF
10.600090000000000,SPI,MOSI: 0xFBFF
10.620097666666666,SPI,MOSI: 0xFBFF
10.640093333333333,SPI,MOSI: 0xFBFF
10.660088958333333,SPI,MOSI: 0xFBFF
10.680096624999999,SPI,MOSI: 0xFBFF
10.700092291666667,SPI,MOSI: 0xFBFF
10.720099958333334,SPI,MOSI: 0xFBFF
10.740095583333334,SPI,MOSI: 0xFBFF
10.760091208333334,SPI,MOSI: 0xFBFF
10.780098916666667,SPI,MOSI: 0xFBFF
10.800094541666667,SPI,MOSI: 0xFBFF
10.820090166666667,SPI,MOSI: 0xFBFF
10.840097833333333,SPI,MOSI: 0xFBFF
10.860093500000000,SPI,MOSI: 0xFBFF
10.880101166666666,SPI,MOSI: 0xFBFF
10.900096791666666,SPI,MOSI: 0xFBFF
10.920092458333333,SPI,MOSI: 0xFBFF
10.940100125000001,SPI,MOSI: 0xFBFF
10.960095750000001,SPI,MOSI: 0xFBFF
10.980091416666667,SPI,MOSI: 0xFBFF
11.000099083333334,SPI,MOSI: 0xFBFF
11.020094708333334,SPI,MOSI: 0xFBFF
11.040102375000000,SPI,MOSI: 0xFBFF
11.060098041666667,SPI,MOSI: 0xFBFF
11.080093666666667,SPI,MOSI: 0xFBFF
11.100101333333333,SPI,MOSI: 0xFBFF
11.120096958333333,SPI,MOSI: 0xFBFF
11.140092624999999,SPI,MOSI: 0xFBFF
11.160100291666666,SPI,MOSI: 0xFBFF
11.180095916666666,SPI,MOSI: 0xFBFF
11.200103583333334,SPI,MOSI: 0xFBFF
11.220099250000001,SPI,MOSI: 0xFBFF
11.240094875000000,SPI,MOSI: 0xFBFF
11.260102541666667,SPI,MOSI: 0xFBFF
11.280098208333333,SPI,MOSI: 0xFBFF
11.300093833333333,SPI,MOSI: 0xFBFF
11.320101500000000,SPI,MOSI: 0xFBFF
11.340097166666666,SPI,MOSI: 0xFBFF
