Time [s], Analyzer Name, Decoded Protocol Result
0.000018083333333,SPI,MOSI: 0b  1111  1111  1111  1111
0.020025750000000,SPI,MOSI: 0b  1111  1111  1111  1111
0.040021416666667,SPI,MOSI: 0b  1111  1111  1111  1111
0.060017041666667,SPI,MOSI: 0b  1111  1111  1111  1111
0.080024708333333,SPI,MOSI: 0b  1111  1111  1111  1111
0.100020375000000,SPI,MOSI: 0b  1111  1111  1111  1111
0.120016000000000,SPI,MOSI: 0b  1111  1111  1111  1111
0.140023666666667,SPI,MOSI: 0b  1111  1111  1111  1111
0.160019333333333,SPI,MOSI: 0b  1111  1111  1111  1111
0.180027000000000,SPI,MOSI: 0b  1111  1111  1111  1111
0.200022625000000,SPI,MOSI: 0b  1111  1111  1111  1111
0.220018250000000,SPI,MOSI: 0b  1111  1111  1111  1111
0.240025958333333,SPI,MOSI: 0b  1111  1111  1111  1111
0.260021583333333,SPI,MOSI: 0b  1111  1111  1111  1111
0.280017208333333,SPI,MOSI: 0b  1111  1111  1111  1111
0.300024875000000,SPI,MOSI: 0b  1111  1111  1111  1111
0.320020541666667,SPI,MOSI: 0b  1111  1111  1111  1111
0.340028208333333,SPI,MOSI: 0b  1111  1111  1111  1111
0.360023833333333,SPI,MOSI: 0b  1111  1111  1111  1111
0.380019500000000,SPI,MOSI: 0b  1111  1111  1111  1111
0.400027166666667,SPI,MOSI: 0b  1111  1111  1111  1111
0.420022791666667,SPI,MOSI: 0b  1111  1111  1111  1111
0.440018416666667,SPI,MOSI: 0b  1111  1111  1111  1111
0.460026125000000,SPI,MOSI: 0b  1111  1111  1111  1111
0.480021750000000,SPI,MOSI: 0b  1111  1111  1111  1111
0.500029416666667,SPI,MOSI: 0b  1111  1111  1111  1111
0.520025041666667,SPI,MOSI: 0b  1111  1111  1111  1111
0.540020708333333,SPI,MOSI: 0b  1111  1111  1111  1111
0.560028375000000,SPI,MOSI: 0b  1111  1111  1111  1111
0.580024000000000,SPI,MOSI: 0b  1111  1111  1111  1111
0.600019666666667,SPI,MOSI: 0b  1111  1111  1111  1111
0.620027333333333,SPI,MOSI: 0b  1111  1111  1111  1111
0.640022958333333,SPI,MOSI: 0b  1111  1111  1111  1111
0.660030625000000,SPI,MOSI: 0b  1111  1111  1111  1111
0.680026291666667,SPI,MOSI: 0b  1111  1111  1111  1111
0.700021916666667,SPI,MOSI: 0b  1111  1111  1111  1111
0.720029583333333,SPI,MOSI: 0b  1111  1111  1111  1111
0.740025208333333,SPI,MOSI: 0b  1111  1111  1111  1111
0.760020875000000,SPI,MOSI: 0b  1111  1111  1111  1111
0.780028541666667,SPI,MOSI: 0b  1111  1111  1111  1111
0.800024166666667,SPI,MOSI: 0b  1111  1111  1111  1111
0.820031833333333,SPI,MOSI: 0b  1111  1111  1111  1111
0.840027500000000,SPI,MOSI: 0b  1111  1111  1111  1111
0.860023125000000,SPI,MOSI: 0b  1111  1111  1111  1111
0.880030791666667,SPI,MOSI: 0b  1111  1111  1111  1111
0.900026458333333,SPI,MOSI: 0b  1111  1111  1111  1111
0.920022083333333,SPI,MOSI: 0b  1111  1111  1111  1111
0.940029750000000,SPI,MOSI: 0b  1111  1111  1111  1111
0.960025375000000,SPI,MOSI: 0b  1111  1111  1111  1111
0.980033083333333,SPI,MOSI: 0b  1111  1111  1111  1111
1.000028708333333,SPI,MOSI: 0b  1111  1111  1111  1111
1.020024333333333,SPI,MOSI: 0b  1111  1111  1111  1111
1.040032000000000,SPI,MOSI: 0b  1111  1111  1111  1111
1.060027666666667,SPI,MOSI: 0b  1111  1111  1111  1111
1.080023291666667,SPI,MOSI: 0b  1111  1111  1111  1111
1.100030958333333,SPI,MOSI: 0b  1111  1111  1111  1111
1.120026625000000,SPI,MOSI: 0b  1111  1111  1111  1111
1.140034291666667,SPI,MOSI: 0b  1111  1111  1111  1111
1.160029916666667,SPI,MOSI: 0b  1111  1111  1111  1111
1.180025541666667,SPI,MOSI: 0b  1111  1111  1111  1111
1.200033250000000,SPI,MOSI: 0b  1111  1111  1111  1111
1.220028875000000,SPI,MOSI: 0b  1111  1111  1111  1111
1.240024500000000,SPI,MOSI: 0b  1111  1111  1111  1111
1.260032166666667,SPI,MOSI: 0b  1111  1111  1111  1111
1.280027833333333,SPI,MOSI: 0b  1111  1111  1111  1111
1.300035500000000,SPI,MOSI: 0b  1111  1111  1111  1111
1.320031125000000,SPI,MOSI: 0b  1111  1111  1111  1111
1.340026791666667,SPI,MOSI: 0b  1111  1111  1111  1111
1.360034458333333,SPI,MOSI: 0b  1111  1111  1111  1111
1.380030083333333,SPI,MOSI: 0b  1111  1111  1111  1111
1.400025708333333,SPI,MOSI: 0b  1111  1111  1111  1111
1.420033416666667,SPI,MOSI: 0b  1111  1111  1111  1111
1.440029041666667,SPI,MOSI: 0b  1111  1111  1111  1111
1.460036708333333,SPI,MOSI: 0b  1111  1111  1111  1111
1.480032333333333,SPI,MOSI: 0b  1111  1111  1111  1111
1.500028000000000,SPI,MOSI: 0b  1111  1111  1111  1111
1.520035666666667,SPI,MOSI: 0b  1111  1111  1111  1111
1.540031291666667,SPI,MOSI: 0b  1111  1111  1111  1111
1.560026958333333,SPI,MOSI: 0b  1111  1111  1111  1111
1.580034625000000,SPI,MOSI: 0b  1111  1111  1111  1111
1.600030250000000,SPI,MOSI: 0b  1111  1111  1111  1111
1.620037916666667,SPI,MOSI: 0b  1111  1111  1111  1111
1.640033583333333,SPI,MOSI: 0b  1111  1111  1111  1111
1.660029208333333,SPI,MOSI: 0b  1111  1111  1111  1111
1.680036875000000,SPI,MOSI: 0b  1111  1111  1111  1111
1.700032500000000,SPI,MOSI: 0b  1111  1111  1111  1111
1.720028166666667,SPI,MOSI: 0b  1111  1111  1111  1111
1.740035833333333,SPI,MOSI: 0b  1111  1111  1111  1111
1.760031458333333,SPI,MOSI: 0b  1111  1111  1111  1111
1.780039125000000,SPI,MOSI: 0b  1111  1111  1111  1111
1.800034791666667,SPI,MOSI: 0b  1111  1111  1111  1111
1.820030416666667,SPI,MOSI: 0b  1111  1111  1111  1111
1.840038083333333,SPI,MOSI: 0b  1111  1111  1111  1111
1.860033750000000,SPI,MOSI: 0b  1111  1111  1111  1111
1.880029375000000,SPI,MOSI: 0b  1111  1111  1111  1111
1.900037041666667,SPI,MOSI: 0b  1111  1111  1111  1111
1.920032666666667,SPI,MOSI: 0b  1111  1111  1111  1111
1.940040375000000,SPI,MOSI: 0b  1111  1111  1111  1111
1.960036000000000,SPI,MOSI: 0b  1111  1111  1111  1111
1.980031625000000,SPI,MOSI: 0b  1111  1111  1111  1111
2.000039291666666,SPI,MOSI: 0b  1111  1111  1111  1111
2.020034958333333,SPI,MOSI: 0b  1111  1111  1111  1111
2.040030583333333,SPI,MOSI: 0b  1111  1111  1111  1111
2.060038250000000,SPI,MOSI: 0b  1111  1111  1111  1111
2.080033916666667,SPI,MOSI: 0b  1111  1111  1111  1111
2.100041583333333,SPI,MOSI: 0b  1111  1111  1111  1111
2.120037208333333,SPI,MOSI: 0b  1111  1111  1111  1111
2.140032833333333,SPI,MOSI: 0b  1111  1111  1111  1111
2.160040541666667,SPI,MOSI: 0b  1111  1111  1111  1111
2.180036166666667,SPI,MOSI: 0b  1111  1111  1111  1111
2.200031791666667,SPI,MOSI: 0b  1111  1111  1111  1111
2.220039458333333,SPI,MOSI: 0b  1111  1111  1111  1111
2.240035125000000,SPI,MOSI: 0b  1111  1111  1111  1111
2.260042791666667,SPI,MOSI: 0b  1111  1111  1111  1111
2.280038416666667,SPI,MOSI: 0b  1111  1111  1111  1111
2.300034083333333,SPI,MOSI: 0b  1111  1111  1111  1111
2.320041750000000,SPI,MOSI: 0b  1111  1111  1111  1111
2.340037375000000,SPI,MOSI: 0b  1111  1111  1111  1111
2.360033000000000,SPI,MOSI: 0b  1111  1111  1111  1111
2.380040708333333,SPI,MOSI: 0b  1111  1111  1111  1111
2.400036333333333,SPI,MOSI: 0b  1111  1111  1111  1111
2.420044000000000,SPI,MOSI: 0b  1111  1111  1111  1111
2.440039625000000,SPI,MOSI: 0b  1111  1111  1111  1111
2.460035291666667,SPI,MOSI: 0b  1111  1111  1111  1111
2.480042958333333,SPI,MOSI: 0b  1111  1111  1111  1111
2.500038583333333,SPI,MOSI: 0b  1111  1111  1111  1111
2.520034250000000,SPI,MOSI: 0b  1111  1111  1111  1111
2.540041916666667,SPI,MOSI: 0b  1111  1111  1111  1111
2.560037541666667,SPI,MOSI: 0b  1111  1111  1111  1111
2.580045208333333,SPI,MOSI: 0b  1111  1111  1111  1111
2.600040875000000,SPI,MOSI: 0b  1111  1111  1111  1111
2.620036500000000,SPI,MOSI: 0b  1111  1111  1111  1111
2.640044166666667,SPI,MOSI: 0b  1111  1111  1111  1111
2.660039791666667,SPI,MOSI: 0b  1111  1111  1111  1111
2.680035458333333,SPI,MOSI: 0b  1111  1111  1111  1111
2.700043125000000,SPI,MOSI: 0b  1111  1111  1111  1111
2.720038750000000,SPI,MOSI: 0b  1111  1111  1111  1111
2.740046416666666,SPI,MOSI: 0b  1111  1111  1111  1111
2.760042083333333,SPI,MOSI: 0b  1111  1111  1111  1111
2.780037708333333,SPI,MOSI: 0b  1111  1111  1111  1111
2.800045375000000,SPI,MOSI: 0b  1111  1111  1111  1111
2.820041041666667,SPI,MOSI: 0b  1111  1111  1111  1111
2.840036666666667,SPI,MOSI: 0b  1111  1111  1111  1111
2.860044333333333,SPI,MOSI: 0b  1111  1111  1111  1111
2.880039958333333,SPI,MOSI: 0b  1111  1111  1111  1111
2.900047625000000,SPI,MOSI: 0b  1111  1111  1111  1111
2.920043291666667,SPI,MOSI: 0b  1111  1111  1111  1111
2.940038916666667,SPI,MOSI: 0b  1111  1111  1111  1111
2.960046583333333,SPI,MOSI: 0b  1111  1111  1111  1111
2.980042250000000,SPI,MOSI: 0b  1111  1111  1111  1111
3.000037875000000,SPI,MOSI: 0b  1111  1111  1111  1111
3.020045541666667,SPI,MOSI: 0b  1111  1111  1111  1111
3.040041208333333,SPI,MOSI: 0b  1111  1111  1111  1111
3.060048875000000,SPI,MOSI: 0b  1111  1111  1111  1111
3.080044500000000,SPI,MOSI: 0b  1111  1111  1111  1111
3.100040125000000,SPI,MOSI: 0b  1111  1111  1111  1111
3.120047791666666,SPI,MOSI: 0b  1111  1111  1111  1111
3.140043458333333,SPI,MOSI: 0b  1111  1111  1111  1111
3.160039083333333,SPI,MOSI: 0b  1111  1111  1111  1111
3.180046750000000,SPI,MOSI: 0b  1111  1111  1111  1111
3.200042416666667,SPI,MOSI: 0b  1111  1111  1111  1111
3.220050083333333,SPI,MOSI: 0b  1111  1111  1111  1111
3.240045708333333,SPI,MOSI: 0b  1111  1111  1111  1111
3.260041333333333,SPI,MOSI: 0b  1111  1111  1111  1111
3.280049041666667,SPI,MOSI: 0b  1111  1111  1111  1111
3.300044666666667,SPI,MOSI: 0b  1111  1111  1111  1111
3.320040291666666,SPI,MOSI: 0b  1111  1111  1111  1111
3.340047958333333,SPI,MOSI: 0b  1111  1111  1111  1111
3.360043625000000,SPI,MOSI: 0b  1111  1111  1111  1111
3.380051291666667,SPI,MOSI: 0b  1111  1111  1111  1111
3.400046916666667,SPI,MOSI: 0b  1111  1111  1111  1111
3.420042583333333,SPI,MOSI: 0b  1111  1111  1111  1111
3.440050250000000,SPI,MOSI: 0b  1111  1111  1111  1111
3.460045875000000,SPI,MOSI: 0b  1111  1111  1111  1111
3.480041500000000,SPI,MOSI: 0b  1111  1111  1111  1111
3.500049166666667,SPI,MOSI: 0b  1111  1111  1111  1111
3.520044833333333,SPI,MOSI: 0b  1111  1111  1111  1111
3.540052500000000,SPI,MOSI: 0b  1111  1111  1111  1111
3.560048125000000,SPI,MOSI: 0b  1111  1111  1111  1111
3.580043791666667,SPI,MOSI: 0b  1111  1111  1111  1111
3.600051458333333,SPI,MOSI: 0b  1111  1111  1111  1111
3.620047083333333,SPI,MOSI: 0b  1111  1111  1111  1111
3.640042708333334,SPI,MOSI: 0b  1111  1111  1111  1111
3.660050416666667,SPI,MOSI: 0b  1111  1111  1111  1111
3.680046041666666,SPI,MOSI: 0b  1111  1111  1111  1111
3.700053708333333,SPI,MOSI: 0b  1111  1111  1111  1111
3.720049333333333,SPI,MOSI: 0b  1111  1111  1111  1111
3.740045000000000,SPI,MOSI: 0b  1111  1111  1111  1111
3.760052666666667,SPI,MOSI: 0b  1111  1111  1111  1111
3.780048291666667,SPI,MOSI: 0b  1111  1111  1111  1111
3.800043958333333,SPI,MOSI: 0b  1111  1111  1111  1111
3.820051625000000,SPI,MOSI: 0b  1111  1111  1111  1111
3.840047250000000,SPI,MOSI: 0b  1111  1111  1111  1111
3.860054916666666,SPI,MOSI: 0b  1111  1111  1111  1111
3.880050583333333,SPI,MOSI: 0b  1111  1111  1111  1111
3.900046208333333,SPI,MOSI: 0b  1111  1111  1111  1111
3.920053875000000,SPI,MOSI: 0b  1111  1111  1111  1111
3.940049500000000,SPI,MOSI: 0b  1111  1111  1111  1111
3.960045166666667,SPI,MOSI: 0b  1111  1111  1111  1111
3.980052833333333,SPI,MOSI: 0b  1111  1111  1111  1111
4.000048458333334,SPI,MOSI: 0b  1111  1111  1111  1111
4.020056125000000,SPI,MOSI: 0b  1111  1111  1111  1111
4.040051791666667,SPI,MOSI: 0b  1111  1111  1111  1111
4.060047416666666,SPI,MOSI: 0b  1111  1111  1111  1111
4.080055083333334,SPI,MOSI: 0b  1111  1111  1111  1111
4.100050708333334,SPI,MOSI: 0b  1111  1111  1111  1111
4.120046375000000,SPI,MOSI: 0b  1111  1111  1111  1111
4.140054041666667,SPI,MOSI: 0b  1111  1111  1111  1111
4.160049666666667,SPI,MOSI: 0b  1111  1111  1111  1111
4.180057333333333,SPI,MOSI: 0b  1111  1111  1111  1111
4.200053000000000,SPI,MOSI: 0b  1111  1111  1111  1111
4.220048625000000,SPI,MOSI: 0b  1111  1111  1111  1111
4.240056291666667,SPI,MOSI: 0b  1111  1111  1111  1111
4.260051958333333,SPI,MOSI: 0b  1111  1111  1111  1111
4.280047583333333,SPI,MOSI: 0b  1111  1111  1111  1111
4.300055250000000,SPI,MOSI: 0b  1111  1111  1111  1111
4.320050875000000,SPI,MOSI: 0b  1111  1111  1111  1111
4.340058541666667,SPI,MOSI: 0b  1111  1111  1111  1111
4.360054208333334,SPI,MOSI: 0b  1111  1111  1111  1111
4.380049833333334,SPI,MOSI: 0b  1111  1111  1111  1111
4.400057500000000,SPI,MOSI: 0b  1111  1111  1111  1111
4.420053166666666,SPI,MOSI: 0b  1111  1111  1111  1111
4.440048791666666,SPI,MOSI: 0b  1111  1111  1111  1111
4.460056458333334,SPI,MOSI: 0b  1111  1111  1111  1111
4.480052083333334,SPI,MOSI: 0b  1111  1111  1111  1111
4.500059750000000,SPI,MOSI: 0b  1111  1111  1111  1111
4.520055416666667,SPI,MOSI: 0b  1111  1111  1111  1111
4.540051041666667,SPI,MOSI: 0b  1111  1111  1111  1111
4.560058708333333,SPI,MOSI: 0b  1111  1111  1111  1111
4.580054375000000,SPI,MOSI: 0b  1111  1111  1111  1111
4.600050000000000,SPI,MOSI: 0b  1111  1111  1111  1111
4.620057666666667,SPI,MOSI: 0b  1111  1111  1111  1111
4.640053291666667,SPI,MOSI: 0b  1110  1111  1111  1111
4.660061000000000,SPI,MOSI: 0b  1110  1111  1111  1111
4.680056625000000,SPI,MOSI: 0b  1110  1111  1111  1111
4.700052250000000,SPI,MOSI: 0b  1110  1111  1111  1111
4.720059916666667,SPI,MOSI: 0b  1110  1111  1111  1111
4.740055583333334,SPI,MOSI: 0b  1110  1111  1111  1111
4.760051208333334,SPI,MOSI: 0b  1110  1111  1111  1111
4.780058875000000,SPI,MOSI: 0b  1110  1111  1111  1111
4.800054541666666,SPI,MOSI: 0b  1110  1111  1111  1111
4.820062208333334,SPI,MOSI: 0b  1111  1111  1111  1111
4.840057833333334,SPI,MOSI: 0b  1111  1111  1111  1111
4.860053458333334,SPI,MOSI: 0b  1111  1111  1111  1111
4.880061125000000,SPI,MOSI: 0b  1111  1111  1111  1111
4.900056791666667,SPI,MOSI: 0b  1111  1111  1111  1111
4.920052416666667,SPI,MOSI: 0b  1111  1111  1111  1111
4.940060083333333,SPI,MOSI: 0b  1111  1111  1111  1111
4.960055750000000,SPI,MOSI: 0b  1111  1111  1111  1111
4.980063416666667,SPI,MOSI: 0b  1111  1111  1111  1111
5.000059041666667,SPI,MOSI: 0b  1111  1111  1111  1111
5.020054666666667,SPI,MOSI: 0b  1111  1111  1111  1111
5.040062375000000,SPI,MOSI: 0b  1111  1111  1111  1111
5.060058000000000,SPI,MOSI: 0b  1111  1111  1111  1111
5.080053625000000,SPI,MOSI: 0b  1111  1111  1111  1111
5.100061291666667,SPI,MOSI: 0b  1111  1111  1111  1111
5.120056958333334,SPI,MOSI: 0b  1111  1111  1111  1111
5.140064625000000,SPI,MOSI: 0b  1111  1111  1111  1111
5.160060250000000,SPI,MOSI: 0b  1111  1111  1111  1111
5.180055916666666,SPI,MOSI: 0b  1111  1111  1111  1111
5.200063583333334,SPI,MOSI: 0b  1111  1111  1111  1111
5.220059208333334,SPI,MOSI: 0b  1111  1111  1111  1111
5.240054833333334,SPI,MOSI: 0b  1111  1111  1111  1111
5.260062541666667,SPI,MOSI: 0b  1111  1111  1111  1111
5.280058166666667,SPI,MOSI: 0b  1111  1111  1111  1111
5.300065833333333,SPI,MOSI: 0b  1111  1111  1111  1111
5.320061458333333,SPI,MOSI: 0b  1111  1111  1111  1111
5.340057125000000,SPI,MOSI: 0b  1111  1111  1111  1111
5.360064791666667,SPI,MOSI: 0b  1111  1111  1111  1111
5.380060416666667,SPI,MOSI: 0b  1111  1111  1111  1111
5.400056083333333,SPI,MOSI: 0b  1111  1111  1111  1111
5.420063750000000,SPI,MOSI: 0b  1111  1111  1111  1111
5.440059375000000,SPI,MOSI: 0b  1111  1111  1111  1111
5.460067041666667,SPI,MOSI: 0b  1111  1111  1111  1111
5.480062666666667,SPI,MOSI: 0b  1111  1111  1111  1111
5.500058333333333,SPI,MOSI: 0b  1111  1111  1111  1111
5.520066000000000,SPI,MOSI: 0b  1111  1111  1111  1111
5.540061625000000,SPI,MOSI: 0b  1111  1111  1111  1111
5.560057291666666,SPI,MOSI: 0b  1111  1111  1111  1111
5.580064958333334,SPI,MOSI: 0b  1111  1111  1111  1111
5.600060583333334,SPI,MOSI: 0b  1111  1111  1111  1111
5.620068250000000,SPI,MOSI: 0b  1111  1111  1111  1111
5.640063916666667,SPI,MOSI: 0b  1111  1111  1111  1111
5.660059541666667,SPI,MOSI: 0b  1111  1111  1111  1111
5.680067208333333,SPI,MOSI: 0b  1111  1111  1111  1111
5.700062833333333,SPI,MOSI: 0b  1111  1111  1111  1111
5.720058500000000,SPI,MOSI: 0b  1111  1111  1111  1111
5.740066166666667,SPI,MOSI: 0b  1111  1111  1111  1111
5.760061791666667,SPI,MOSI: 0b  1111  1111  1111  1111
5.780069458333333,SPI,MOSI: 0b  1111  1111  1111  1111
5.800065125000000,SPI,MOSI: 0b  1111  1111  1111  1111
5.820060750000000,SPI,MOSI: 0b  1111  1111  1111  1111
5.840068416666667,SPI,MOSI: 0b  1111  1111  1111  1111
5.860064041666667,SPI,MOSI: 0b  1111  1111  1111  1111
5.880059708333333,SPI,MOSI: 0b  1111  1111  1111  1111
5.900067375000000,SPI,MOSI: 0b  1111  1111  1111  1111
5.920063000000000,SPI,MOSI: 0b  1111  1111  1111  1111
5.940070666666666,SPI,MOSI: 0b  1111  1111  1111  1111
5.960066333333334,SPI,MOSI: 0b  1111  1111  1111  1111
5.980061958333334,SPI,MOSI: 0b  1111  1111  1111  1111
6.000069625000000,SPI,MOSI: 0b  1111  1111  1111  1111
6.020065291666667,SPI,MOSI: 0b  1111  1111  1111  1111
6.040060916666667,SPI,MOSI: 0b  1111  1111  1111  1111
6.060068583333333,SPI,MOSI: 0b  1111  1111  1111  1111
6.080064208333333,SPI,MOSI: 0b  1111  1111  1111  1111
6.100071875000000,SPI,MOSI: 0b  1111  1111  1111  1111
6.120067541666667,SPI,MOSI: 0b  1111  1111  1111  1111
6.140063166666667,SPI,MOSI: 0b  1111  1111  1111  1111
6.160070833333333,SPI,MOSI: 0b  1111  1111  1111  1111
6.180066500000000,SPI,MOSI: 0b  1111  1111  1111  1111
6.200062125000000,SPI,MOSI: 0b  1111  1111  1111  1111
6.220069791666667,SPI,MOSI: 0b  1111  1111  1111  1111
6.240065416666667,SPI,MOSI: 0b  1111  1111  1111  1111
6.260073083333333,SPI,MOSI: 0b  1111  1111  1111  1111
6.280068750000000,SPI,MOSI: 0b  1111  1111  1111  1111
6.300064375000000,SPI,MOSI: 0b  1111  1111  1111  1111
6.320072041666666,SPI,MOSI: 0b  1111  1111  0111  1111
6.340067708333334,SPI,MOSI: 0b  1111  1111  0111  1111
6.360063333333334,SPI,MOSI: 0b  1111  1111  0111  1111
6.380071000000000,SPI,MOSI: 0b  1111  1111  0111  1111
6.400066625000000,SPI,MOSI: 0b  1111  1111  0111  1111
6.420074291666666,SPI,MOSI: 0b  1111  1111  1111  1111
6.440069958333333,SPI,MOSI: 0b  1111  1111  1111  1111
6.460065583333333,SPI,MOSI: 0b  1111  1111  1111  1111
6.480073250000000,SPI,MOSI: 0b  1111  1111  1111  1111
6.500068916666667,SPI,MOSI: 0b  1111  1111  1111  1111
6.520064541666667,SPI,MOSI: 0b  1111  1111  1111  1111
6.540072208333333,SPI,MOSI: 0b  1111  1111  1111  1111
6.560067833333333,SPI,MOSI: 0b  1111  1111  1111  1111
6.580075541666667,SPI,MOSI: 0b  1111  1111  1111  1111
6.600071166666667,SPI,MOSI: 0b  1111  1111  1111  1111
6.620066791666667,SPI,MOSI: 0b  1111  1111  1111  1111
6.640074458333333,SPI,MOSI: 0b  1111  1111  1111  1111
6.660070125000000,SPI,MOSI: 0b  1111  1111  1111  1111
6.680065750000000,SPI,MOSI: 0b  1111  1111  1111  1111
6.700073416666666,SPI,MOSI: 0b  1111  1111  1111  1111
6.720069083333334,SPI,MOSI: 0b  1111  1111  1111  1111
6.740076750000000,SPI,MOSI: 0b  1111  1111  1111  1111
6.760072375000000,SPI,MOSI: 0b  1111  1111  1111  1111
6.780068000000000,SPI,MOSI: 0b  1111  1111  1111  1111
6.800075708333333,SPI,MOSI: 0b  1111  1111  1111  1111
6.820071333333333,SPI,MOSI: 0b  1111  1111  1111  1111
6.840066958333333,SPI,MOSI: 0b  1111  1111  1111  1111
6.860074625000000,SPI,MOSI: 0b  1111  1111  1111  1111
6.880070291666667,SPI,MOSI: 0b  1111  1111  1111  1111
6.900077958333333,SPI,MOSI: 0b  1111  1111  1111  1111
6.920073583333333,SPI,MOSI: 0b  1111  1111  1111  1111
6.940069250000000,SPI,MOSI: 0b  1111  1111  1111  1111
6.960076916666667,SPI,MOSI: 0b  1111  1111  1111  1111
6.980072541666667,SPI,MOSI: 0b  1111  1111  1111  1111
7.000068166666667,SPI,MOSI: 0b  1111  1111  1111  1111
7.020075833333333,SPI,MOSI: 0b  1111  1111  1111  1111
7.040071500000000,SPI,MOSI: 0b  1111  1111  1111  1111
7.060079166666666,SPI,MOSI: 0b  1111  1111  1111  1111
7.080074791666667,SPI,MOSI: 0b  1111  1111  1111  1111
7.100070458333334,SPI,MOSI: 0b  1111  1111  1111  1111
7.120078125000000,SPI,MOSI: 0b  1111  1111  1111  1111
7.140073750000000,SPI,MOSI: 0b  1111  1111  1111  1111
7.160069375000000,SPI,MOSI: 0b  1111  1111  1111  1111
7.180077083333333,SPI,MOSI: 0b  1111  1111  1111  1111
7.200072708333333,SPI,MOSI: 0b  1111  1111  1111  1111
7.220080375000000,SPI,MOSI: 0b  1111  1111  1111  1111
